X--Trace 1::[transient: TIME],Y--Trace 1::[PR2: V(2)],,X--Trace 2::[transient: TIME],Y--Trace 2::[PR1: V(3)]
0,4.979949698829673e-7,,0,0
1.0000000000000001e-11,0.00009889566743535734,,1.0000000000000001e-11,0.01
2.0000000000000002e-11,0.00019668499332328013,,2.0000000000000002e-11,0.02
4.0000000000000004e-11,0.00039105447297332945,,4.0000000000000004e-11,0.04
8.000000000000001e-11,0.0007726275428551665,,8.000000000000001e-11,0.08
1.4863967230383782e-10,0.0014057397581836186,,1.4863967230383782e-10,0.14863967230383782
2.859190169115134e-10,0.0025941811964655726,,2.859190169115134e-10,0.2859190169115134
5.604777061268647e-10,0.004690527171219556,,5.604777061268647e-10,0.5604777061268646
1e-9,0.007390627085198166,,1e-9,1
1.0314313239023899e-9,0.007248886591835511,,1.0314313239023899e-9,1
1.0942939717071697e-9,0.006970841125742529,,1.0942939717071697e-9,1
1.2200192673167292e-9,0.006446135924389725,,1.2200192673167292e-9,1
1.4714698585358484e-9,0.0055108848140127615,,1.4714698585358484e-9,1
1.974371040974087e-9,0.004019809250160313,,1.974371040974087e-9,1
2.980173405850563e-9,0.0021032750988008086,,2.980173405850563e-9,1
4.941669230457832e-9,0.000507079609406237,,4.941669230457832e-9,1
6.985108510403845e-9,0.00010914846800537341,,6.985108510403845e-9,1
1.005975559478017e-8,-0.000004873621652669563,,1.005975559478017e-8,1
1.3994288801628605e-8,-0.000011593512581218968,,1.3994288801628605e-8,1
2.1863355215325476e-8,-0.000019100717962087318,,2.1863355215325476e-8,1
3.760148804271921e-8,-0.0000350159436038316,,3.760148804271921e-8,1
6.907775369750668e-8,-0.00006636214028598525,,6.907775369750668e-8,1
1.3203028500708165e-7,-0.00012941761007922282,,1.3203028500708165e-7,1
2.579353476262316e-7,-0.00025519618466034064,,2.579353476262316e-7,1
5.097454728645313e-7,-0.0005070060706408872,,5.097454728645313e-7,1
0.0000010133657233411308,-0.001010144984383539,,0.0000010133657233411308,1
0.00000202060622429433,-0.0020159490035002005,,0.00000202060622429433,1
0.000004035087226200729,-0.0040242372666498254,,0.000004035087226200729,1
0.000008064049230013525,-0.008028983325583104,,0.000008064049230013525,1
0.000016121973237639117,-0.015989983588266685,,0.000016121973237639117,1
0.0000322378212528903,-0.031721354012496934,,0.0000322378212528903,1
0.00006446951728339268,-0.0624353048395202,,0.00006446951728339268,1
0.00012893290934439742,-0.120986317188067,,0.00012893290934439742,1
0.0002289329093443974,-0.2047010790295729,,0.0002289329093443974,1
0.0003289329093443974,-0.28044315932079633,,0.0003289329093443974,1
0.0004289329093443974,-0.3489715059543832,,0.0004289329093443974,1
0.000500001,-0.3936507177917703,,0.000500001,1
0.0005000011000000001,-0.3945828866623747,,0.0005000011000000001,0.8999999999658994
0.0005000013,-0.3963380417204031,,0.0005000013,0.7000000000061184
0.0005000017,-0.3992657305325191,,0.0005000017,0.2999999999781363
0.000500002,-0.40102420726025934,,0.000500002,0
0.00050000208,-0.4006746897646817,,0.00050000208,0
0.0005000022400000001,-0.40000879208157974,,0.0005000022400000001,0
0.0005000025600000001,-0.39885782195735126,,0.0005000025600000001,0
0.0005000032000000001,-0.3971290779405348,,0.0005000032000000001,0
0.0005000044800000001,-0.39514823951330547,,0.0005000044800000001,0
0.0005000070400000002,-0.39382019070290636,,0.0005000070400000002,0
0.0005000121600000002,-0.39360963198179844,,0.0005000121600000002,0
0.0005000224000000004,-0.3936646565231448,,0.0005000224000000004,0
0.0005000428800000007,-0.39362157707741136,,0.0005000428800000007,0
0.0005000838400000014,-0.39363282621589235,,0.0005000838400000014,0
0.0005001657600000027,-0.3935763107256245,,0.0005001657600000027,0
0.0005003296000000053,-0.3935347002689056,,0.0005003296000000053,0
0.0005006572800000104,-0.393383567599546,,0.0005006572800000104,0
0.0005013126400000207,-0.3931477140366563,,0.0005013126400000207,0
0.0005026233600000414,-0.3926110391532723,,0.0005026233600000414,0
0.0005052448000000826,-0.39160478479291677,,0.0005052448000000826,0
0.0005104876800001652,-0.3895354648721555,,0.0005104876800001652,0
0.0005209734400003303,-0.38549363938272685,,0.0005209734400003303,0
0.0005419449600006605,-0.37747176133574056,,0.0005419449600006605,0
0.0005838880000013208,-0.361985703858012,,0.0005838880000013208,0
0.0006677740800026417,-0.3328216685173549,,0.0006677740800026417,0
0.0007677740800026417,-0.3011447490788588,,0.0007677740800026417,0
0.0008677740800026417,-0.2724436249099593,,0.0008677740800026417,0
0.0009677740800026418,-0.24651701136669416,,0.0009677740800026418,0
0.001,-0.2386774953125982,,0.001,0
0.0010000001,-0.23774599154684656,,0.0010000001,0.10000000003410059
0.0010000003000000001,-0.2359920931303268,,0.0010000003000000001,0.30000000010230177
0.0010000007,-0.23306652485754598,,0.0010000007,0.7000000000218637
0.001000001,-0.23130934375995613,,0.001000001,0.9999999999073249
0.0010000010799999998,-0.23165916367573258,,0.0010000010799999998,1
0.0010000012399999998,-0.23232564031255634,,0.0010000012399999998,1
0.0010000015599999999,-0.23347762708405545,,0.0010000015599999999,1
0.0010000022,-0.2352079566436184,,0.0010000022,1
0.0010000034799999998,-0.2371908126344833,,0.0010000034799999998,1
0.0010000060399999995,-0.23852083926583692,,0.0010000060399999995,1
0.001000011159999999,-0.23873344325352377,,0.001000011159999999,1
0.001000021399999998,-0.2386821372666835,,0.001000021399999998,1
0.0010000418799999962,-0.23873277332578005,,0.0010000418799999962,1
0.0010000828399999923,-0.23873656085968523,,0.0010000828399999923,1
0.0010001647599999848,-0.238823209569069,,0.0010001647599999848,1
0.0010003285999999696,-0.23892502327846105,,0.0010003285999999696,1
0.0010006562799999392,-0.23919658593329168,,0.0010006562799999392,1
0.0010013116399998784,-0.2396731293552587,,0.0010013116399998784,1
0.0010026223599997569,-0.240690762162337,,0.0010026223599997569,1
0.001005243799999514,-0.24265699286927633,,0.001005243799999514,1
0.0010104866799990281,-0.24663878618014345,,0.0010104866799990281,1
0.0010209724399980564,-0.25447558429365014,,0.0010209724399980564,1
0.0010419439599961128,-0.2699693165052306,,0.0010419439599961128,1
0.0010838869999922258,-0.29993859882286156,,0.0010838869999922258,1
0.0011677730799844518,-0.35632007569560875,,0.0011677730799844518,1
0.0012677730799844518,-0.41760156657253666,,0.0012677730799844518,1
0.0013677730799844519,-0.4730878021102655,,0.0013677730799844519,1
0.001467773079984452,-0.523248523677414,,0.001467773079984452,1
0.001500001,-0.538390515170646,,0.001500001,1
0.0015000011,-0.5393220407263506,,0.0015000011,0.9000000000743196
0.0015000013,-0.5410759828090315,,0.0015000013,0.7000000000061184
0.0015000017000000002,-0.5440016387004226,,0.0015000017000000002,0.29999999986971615
0.001500002,-0.5457588857436351,,0.001500002,0
0.0015000020800000002,-0.5454090834364916,,0.0015000020800000002,0
0.0015000022400000002,-0.5447426420613866,,0.0015000022400000002,0
0.0015000025600000002,-0.5435907259248517,,0.0015000025600000002,0
0.0015000032000000003,-0.5418605379842151,,0.0015000032000000003,0
0.0015000044800000003,-0.5398779661155917,,0.0015000044800000003,0
0.0015000070400000007,-0.5385485093458197,,0.0015000070400000007,0
0.0015000121600000013,-0.5383370465801219,,0.0015000121600000013,0
0.0015000224000000027,-0.5383906352837279,,0.0015000224000000027,0
0.0015000428800000052,-0.5383445644941728,,0.0015000428800000052,0
0.0015000838400000102,-0.5383499072790736,,0.0015000838400000102,0
0.0015001657600000203,-0.5382815180365011,,0.0015001657600000203,0
0.0015003296000000407,-0.538216218817836,,0.0015003296000000407,0
0.0015006572800000814,-0.5380176671576872,,0.0015006572800000814,0
0.0015013126400001628,-0.5376870740166388,,0.0015013126400001628,0
0.0015026233600003256,-0.5369610549679239,,0.0015026233600003256,0
0.001505244800000651,-0.5355769066430824,,0.001505244800000651,0
0.001510487680001302,-0.532754712327463,,0.001510487680001302,0
0.001520973440002604,-0.5272189683933934,,0.001520973440002604,0
0.0015419449600052079,-0.5162557104883453,,0.0015419449600052079,0
0.0015838880000104158,-0.4950681978807037,,0.0015838880000104158,0
0.0016677740800208317,-0.4551897360358056,,0.0016677740800208317,0
0.0017677740800208317,-0.4118586931464167,,0.0017677740800208317,0
0.0018677740800208318,-0.3726133335457562,,0.0018677740800208318,0
0.001967774080020832,-0.33714673283037777,,0.001967774080020832,0
0.002,-0.32643287808508503,,0.002,0
0.0020000001,-0.32550136603687874,,0.0020000001,0.10000000003410059
0.0020000003,-0.3237474510003148,,0.0020000003,0.30000000010230177
0.0020000007000000003,-0.3208218491711155,,0.0020000007000000003,0.7000000002387041
0.002000001,-0.31906464268199414,,0.002000001,0.9999999999073249
0.00200000108,-0.3194144557880465,,0.00200000108,1
0.00200000124,-0.3200809187941588,,0.00200000124,1
0.00200000156,-0.32123287818689483,,0.00200000156,1
0.0020000022,-0.32296315264457826,,0.0020000022,1
0.00200000348,-0.3249458975240742,,0.00200000348,1
0.0020000060399999998,-0.3262757003157232,,0.0020000060399999998,1
0.0020000111599999993,-0.32648785512624723,,0.0020000111599999993,1
0.0020000213999999982,-0.32643565049936707,,0.0020000213999999982,1
0.002000041879999996,-0.3264844894003859,,0.002000041879999996,1
0.0020000828399999926,-0.32648468266847824,,0.0020000828399999926,1
0.002000164759999985,-0.32656414333661477,,0.002000164759999985,1
0.00200032859999997,-0.3266515826858608,,0.00200032859999997,1
0.0020006562799999394,-0.3268944037264561,,0.0020006562799999394,1
0.0020013116399998786,-0.3273134921240745,,0.0020013116399998786,1
0.002002622359999757,-0.32821632781039506,,0.002002622359999757,1
0.002005243799999514,-0.3299534150470259,,0.002005243799999514,1
0.002010486679999028,-0.33347871880924185,,0.002010486679999028,1
0.0020209724399980564,-0.34040968032235647,,0.0020209724399980564,1
0.002041943959996113,-0.3541199389305655,,0.002041943959996113,1
0.002083886999992226,-0.3806321760216162,,0.002083886999992226,1
0.002167773079984452,-0.4305170501588116,,0.002167773079984452,1
0.0022677730799844516,-0.484732139562015,,0.0022677730799844516,1
0.0023677730799844515,-0.5338249664527364,,0.0023677730799844515,1
0.0024677730799844513,-0.5782011773859275,,0.0024677730799844513,1
0.002500001,-0.5916002387295608,,0.002500001,1
0.0025000011,-0.5925317589675869,,0.0025000011,0.9000000000743196
0.0025000013,-0.5942856903978038,,0.0025000013,0.7000000000061184
0.0025000017,-0.5972113250110219,,0.0025000017,0.29999999986971615
0.0025000020000000003,-0.5989685560876493,,0.0025000020000000003,0
0.0025000020800000004,-0.5986187495142535,,0.0025000020800000004,0
0.0025000022400000006,-0.59795229963413,,0.0025000022400000006,0
0.0025000025600000007,-0.5968003664752566,,0.0025000025600000007,0
0.0025000032000000007,-0.595070144475474,,0.0025000032000000007,0
0.0025000044800000012,-0.593087504499014,,0.0025000044800000012,0
0.0025000070400000023,-0.5917579115102174,,0.0025000070400000023,0
0.002500012160000004,-0.5915461763134604,,0.002500012160000004,0
0.0025000224000000073,-0.5915992201560598,,0.0025000224000000073,0
0.0025000428800000143,-0.5915520596624292,,0.0025000428800000143,0
0.0025000838400000285,-0.5915552231052486,,0.0025000838400000285,0
0.0025001657600000563,-0.5914824754471038,,0.0025001657600000563,0
0.002500329600000112,-0.5914084604676084,,0.002500329600000112,0
0.002500657280000224,-0.5911924815697692,,0.002500657280000224,0
0.0025013126400004475,-0.5908270510787883,,0.0025013126400004475,0
0.0025026233600008944,-0.5900314257792614,,0.0025026233600008944,0
0.002505244800001788,-0.5885083382977079,,0.002505244800001788,0
0.002510487680003576,-0.5854093554781571,,0.002510487680003576,0
0.002520973440007152,-0.5793243653511355,,0.002520973440007152,0
0.0025419449600143033,-0.5672797136190616,,0.0025419449600143033,0
0.002583888000028606,-0.5439960514977582,,0.002583888000028606,0
0.0026677740800572117,-0.5001784306751932,,0.0026677740800572117,0
0.0027677740800572115,-0.4525627362909655,,0.0027677740800572115,0
0.0028677740800572113,-0.409440788567768,,0.0028677740800572113,0
0.002967774080057211,-0.3704667997968419,,0.002967774080057211,0
0.003,-0.3586961989585713,,0.003,0
0.0030000001,-0.3577646836786774,,0.0030000001,0.10000000003410059
0.0030000003,-0.35601076219024935,,0.0030000003,0.30000000010230177
0.0030000007000000003,-0.35308514745972774,,0.0030000007000000003,0.7000000002387041
0.003000001,-0.35132793129091966,,0.003000001,0.9999999999073249
0.00300000108,-0.3516777418195441,,0.00300000108,1
0.00300000124,-0.35234419966257136,,0.00300000124,1
0.00300000156,-0.3534961487275081,,0.00300000156,1
0.0030000022,-0.35522640254022575,,0.0030000022,1
0.00300000348,-0.35720910612136764,,0.00300000348,1
0.0030000060399999998,-0.3585388263190637,,0.0030000060399999998,1
0.0030000111599999993,-0.3587508159413454,,0.0030000111599999993,1
0.0030000213999999983,-0.3586982809429646,,0.0030000213999999983,1
0.003000041879999996,-0.3587464591093714,,0.003000041879999996,1
0.0030000828399999926,-0.35874533095012123,,0.0030000828399999926,1
0.003000164759999985,-0.3588221489248465,,0.003000164759999985,1
0.00300032859999997,-0.35890430353769004,,0.00300032859999997,1
0.0030006562799999394,-0.3591365577016625,,0.0030006562799999394,1
0.0030013116399998786,-0.3595345227312612,,0.0030013116399998786,1
0.003002622359999757,-0.36039515318379683,,0.003002622359999757,1
0.003005243799999514,-0.3620479956948279,,0.003005243799999514,1
0.003010486679999028,-0.3654054708024271,,0.003010486679999028,1
0.0030209724399980565,-0.37200340096507256,,0.0030209724399980565,1
0.003041943959996113,-0.3850579644552284,,0.003041943959996113,1
0.003083886999992226,-0.4102992168530082,,0.003083886999992226,1
0.003167773079984452,-0.4577956111915157,,0.003167773079984452,1
0.0032677730799844516,-0.5094127339672354,,0.0032677730799844516,1
0.0033677730799844515,-0.5561550204262479,,0.0033677730799844515,1
0.0034677730799844513,-0.5984045526485599,,0.0034677730799844513,1
0.003500001,-0.611162824698624,,0.003500001,1
0.0035000011,-0.6120943429752302,,0.0035000011,0.9000000000743196
0.0035000013,-0.6138482705004538,,0.0035000013,0.7000000000061184
0.0035000017000000002,-0.6167738972876006,,0.0035000017000000002,0.29999999986971615
0.0035000020000000003,-0.618531122487167,,0.0035000020000000003,0
0.0035000020800000004,-0.6181813143672429,,0.0035000020800000004,0
0.0035000022400000007,-0.6175148613461685,,0.0035000022400000007,0
0.0035000025600000007,-0.6163629219243617,,0.0035000025600000007,0
0.0035000032000000007,-0.6146326874066775,,0.0035000032000000007,0
0.0035000044800000013,-0.6126500223907867,,0.0035000044800000013,0
0.0035000070400000023,-0.611320379321719,,0.0035000070400000023,0
0.003500012160000004,-0.6111085439642292,,0.003500012160000004,0
0.0035000224000000073,-0.6111613874892304,,0.0035000224000000073,0
0.0035000428800000143,-0.6111138263647038,,0.0035000428800000143,0
0.0035000838400000285,-0.6111161885716124,,0.0035000838400000285,0
0.0035001657600000563,-0.6110418385390125,,0.0035001657600000563,0
0.003500329600000112,-0.6109646192053596,,0.003500329600000112,0
0.003500657280000224,-0.6107422331730215,,0.003500657280000224,0
0.0035013126400004475,-0.6103639947103836,,0.0035013126400004475,0
0.0035026233600008944,-0.6095427786317315,,0.0035026233600008944,0
0.003505244800001788,-0.6079686100884824,,0.003505244800001788,0
0.003510487680003576,-0.6047678658135,,0.003510487680003576,0
0.003520973440007152,-0.5984809450033759,,0.003520973440007152,0
0.0035419449600143033,-0.5860387181991042,,0.0035419449600143033,0
0.003583888000028606,-0.5619844054857029,,0.003583888000028606,0
0.0036677740800572117,-0.5167185505646595,,0.0036677740800572117,0
0.0037677740800572115,-0.4675276015534396,,0.0037677740800572115,0
0.0038677740800572113,-0.42298042393992163,,0.0038677740800572113,0
0.003967774080057211,-0.38271694189993466,,0.003967774080057211,0
0.004,-0.37055782773794277,,0.004,0
0.0040000001,-0.3696263112739034,,0.0040000001,0.09999999960041972
0.0040000003,-0.36787238740995554,,0.0040000003,0.2999999996686209
0.0040000007,-0.3649467679401801,,0.0040000007,0.6999999998050233
0.0040000009999999996,-0.3631895482123715,,0.0040000009999999996,0.999999999473644
0.004000001079999999,-0.36353935779482843,,0.004000001079999999,1
0.0040000012399999995,-0.3642058137333637,,0.0040000012399999995,1
0.004000001559999999,-0.36535775899651596,,0.004000001559999999,1
0.004000002199999999,-0.3670880052238,,0.004000002199999999,1
0.004000003479999998,-0.369070693620485,,0.004000003479999998,1
0.004000006039999997,-0.3704003834535108,,0.004000006039999997,1
0.004000011159999994,-0.3706123123454991,,0.004000011159999994,1
0.004000021399999988,-0.37055965588543166,,0.004000021399999988,1
0.004000041879999978,-0.3706075911326212,,0.004000041879999978,1
0.004000082839999956,-0.3706059771495959,,0.004000082839999956,1
0.004000164759999913,-0.3706818235367345,,0.004000164759999913,1
0.004000328599999827,-0.3707620352129033,,0.004000328599999827,1
0.0040006562799996545,-0.37099040445861575,,0.0040006562799996545,1
0.004001311639999309,-0.371380603469242,,0.004001311639999309,1
0.004002622359998619,-0.3722257171427399,,0.004002622359998619,1
0.00400524379999724,-0.37384758703025545,,0.00400524379999724,1
0.004010486679994481,-0.3771433598336577,,0.004010486679994481,1
0.004020972439988961,-0.3836188508226565,,0.004020972439988961,1
0.004041943959977923,-0.3964323476141719,,0.004041943959977923,1
0.004083886999955846,-0.4212063217362095,,0.004083886999955846,1
0.0041677730799116915,-0.4678245900629686,,0.0041677730799116915,1
0.004267773079911692,-0.5184865688928809,,0.004267773079911692,1
0.004367773079911692,-0.5643646777916316,,0.004367773079911692,1
0.004467773079911692,-0.6058323353455108,,0.004467773079911692,1
0.004500001,-0.6183550208660791,,0.004500001,1
0.0045000011,-0.6192865384148833,,0.0045000011,0.9000000005080004
0.0045000013,-0.6210404644928502,,0.0045000013,0.7000000004397993
0.0045000017,-0.6239660884189651,,0.0045000017,0.300000000303397
0.004500002,-0.625723311472582,,0.004500002,0
0.00450000208,-0.6253735027652614,,0.00450000208,0
0.00450000224,-0.6247070485890911,,0.00450000224,0
0.004500002560000001,-0.623555106877266,,0.004500002560000001,0
0.004500003200000001,-0.6218248677536908,,0.004500003200000001,0
0.004500004480000001,-0.6198421935278492,,0.004500004480000001,0
0.004500007040000002,-0.6185125320490571,,0.004500007040000002,0
0.004500012160000004,-0.6183006598669,,0.004500012160000004,0
0.004500022400000007,-0.6183534297447302,,0.004500022400000007,0
0.004500042880000014,-0.6183057213282614,,0.004500042880000014,0
0.004500083840000028,-0.6183077889601094,,0.004500083840000028,0
0.004500165760000056,-0.6182328498137962,,0.004500165760000056,0
0.004500329600000112,-0.6181544523972818,,0.004500329600000112,0
0.0045006572800002234,-0.6179297107783769,,0.0045006572800002234,0
0.004501312640000447,-0.6175467634572978,,0.004501312640000447,0
0.004502623360000894,-0.6167161389139137,,0.004502623360000894,0
0.004505244800001788,-0.6151231903882992,,0.004505244800001788,0
0.004510487680003576,-0.6118850334549127,,0.004510487680003576,0
0.0045209734400071516,-0.6055238727109302,,0.0045209734400071516,0
0.004541944960014303,-0.592935477199124,,0.004541944960014303,0
0.004583888000028606,-0.5685978343448614,,0.004583888000028606,0
0.004667774080057211,-0.5227995353110803,,0.004667774080057211,0
0.0047677740800572115,-0.473029443015217,,0.0047677740800572115,0
0.004867774080057212,-0.4279582787995383,,0.004867774080057212,0
0.004967774080057212,-0.3872207138052011,,0.004967774080057212,0
0.005,-0.3749187624927995,,0.005,0
0.005000000100000001,-0.3739872455850954,,0.005000000100000001,0.10000000046778146
0.005000000300000001,-0.37223332085089333,,0.005000000300000001,0.30000000053598264
0.005000000700000001,-0.369307699638239,,0.005000000700000001,0.700000000672385
0.0050000010000000004,-0.36755047859898926,,0.0050000010000000004,1
0.00500000108,-0.36790028784189865,,0.00500000108,1
0.00500000124,-0.36856674308544346,,0.00500000124,1
