X--Trace 1::[transient: TIME],Y--Trace 1::[PR2: V(2)],,X--Trace 2::[transient: TIME],Y--Trace 2::[PR1: V(3)]
0,2.4849809876977795e-7,,0,0
1.0000000000000001e-11,0.00009864617056413785,,1.0000000000000001e-11,0.01
2.0000000000000002e-11,0.00019643549645216663,,2.0000000000000002e-11,0.02
4.0000000000000004e-11,0.0003908049761021938,,4.0000000000000004e-11,0.04
8.000000000000001e-11,0.0007723780459841064,,8.000000000000001e-11,0.08
1.4863967230383304e-10,0.0014054902613126444,,1.4863967230383304e-10,0.14863967230383301
2.8591901691149915e-10,0.0025939316995957445,,2.8591901691149915e-10,0.2859190169114991
5.604777061268313e-10,0.004690277674359353,,5.604777061268313e-10,0.5604777061268312
1e-9,0.007390377588326312,,1e-9,1
1.0549117378430665e-9,0.007146248331237576,,1.0549117378430665e-9,1
1.1647352135291994e-9,0.006674114465409543,,1.1647352135291994e-9,1
1.3843821649014652e-9,0.005820407402153217,,1.3843821649014652e-9,1
1.8236760676459967e-9,0.004420801753578042,,1.8236760676459967e-9,1
2.70226387313506e-9,0.0025224996940437154,,2.70226387313506e-9,1
4.459439484113186e-9,0.0007375897010326152,,4.459439484113186e-9,1
6.439064085665296e-9,0.00017185775994769264,,6.439064085665296e-9,1
9.26260291521362e-9,0.000004543450777508462,,9.26260291521362e-9,1
1.287276092877221e-8,-0.000011126907761424379,,1.287276092877221e-8,1
1.9960482005959025e-8,-0.00001730601943631055,,1.9960482005959025e-8,1
3.387284079809482e-8,-0.000031620767086221154,,3.387284079809482e-8,1
6.169755838236641e-8,-0.000059164861295486746,,6.169755838236641e-8,1
1.1734699355090959e-7,-0.000115036562939546,,1.1734699355090959e-7,1
2.2864586388799594e-7,-0.00022608386817908466,,2.2864586388799594e-7,1
4.512436045621687e-7,-0.00044873348901858744,,4.512436045621687e-7,1
8.964390859105141e-7,-0.0008931290330540748,,8.964390859105141e-7,1
0.000001786830048607205,-0.0017813294064173936,,0.000001786830048607205,1
0.000003567611974000587,-0.003552404110683717,,0.000003567611974000587,1
0.000007129175824787351,-0.007076282973535287,,0.000007129175824787351,1
0.000014252303526360877,-0.01404868780136325,,0.000014252303526360877,1
0.000028498558929507932,-0.027700268425151144,,0.000028498558929507932,1
0.000056991069735802037,-0.05386828292866151,,0.000056991069735802037,1
0.00011397609134839026,-0.1019724892831953,,0.00011397609134839026,1
0.00021397609134839028,-0.17434026938260824,,0.00021397609134839028,1
0.00031397609134839027,-0.2335506150610725,,0.00031397609134839027,1
0.00041397609134839026,-0.2819950798278483,,0.00041397609134839026,1
0.000500001,-0.31653133394626837,,0.000500001,1
0.0005000011000000001,-0.3174634759194303,,0.0005000011000000001,0.8999999999658994
0.0005000013,-0.3192185775105774,,0.0005000013,0.7000000000061184
0.0005000017,-0.32214616125286005,,0.0005000017,0.2999999999781363
0.000500002,-0.32390456057366984,,0.000500002,0
0.00050000208,-0.3235550226212249,,0.00050000208,0
0.0005000022400000001,-0.3228890841791254,,0.0005000022400000001,0
0.0005000025600000001,-0.32173803322288774,,0.0005000025600000001,0
0.0005000032000000001,-0.32000912961422334,,0.0005000032000000001,0
0.0005000044800000001,-0.31802797744687045,,0.0005000044800000001,0
0.0005000070400000002,-0.3166993108611429,,0.0005000070400000002,0
0.0005000121600000002,-0.31648752561511195,,0.0005000121600000002,0
0.0005000224000000004,-0.31654009892835144,,0.0005000224000000004,0
0.0005000428800000007,-0.31649211673706,,0.0005000428800000007,0
0.0005000838400000014,-0.31649356184043376,,0.0005000838400000014,0
0.0005001657600000027,-0.31641744237959846,,0.0005001657600000027,0
0.0005003296000000053,-0.3163366418008589,,0.0005003296000000053,0
0.0005006572800000104,-0.3161071988283822,,0.0005006572800000104,0
0.0005013126400000207,-0.31571500538439085,,0.0005013126400000207,0
0.0005026233600000414,-0.314866770173436,,0.0005026233600000414,0
0.0005052448000000826,-0.31324185615572414,,0.0005052448000000826,0
0.0005104876800001652,-0.30995291709050227,,0.0005104876800001652,0
0.0005209734400003303,-0.30354152873265455,,0.0005209734400003303,0
0.0005419449600006605,-0.29105044129306235,,0.0005419449600006605,0
0.0005838880000013208,-0.26763883579755393,,0.0005838880000013208,0
0.0006677740800026417,-0.22619168872440937,,0.0006677740800026417,0
0.0007677740800026417,-0.18508544738581292,,0.0007677740800026417,0
0.0008677740800026417,-0.15141387674794785,,0.0008677740800026417,0
0.0009677740800026418,-0.12390360993259926,,0.0009677740800026418,0
0.001,-0.11614620697021631,,0.001,0
0.0010000001,-0.11521470384763358,,0.0010000001,0.10000000003410059
0.0010000003000000001,-0.11346080670748081,,0.0010000003000000001,0.30000000010230177
0.0010000007,-0.11053524099149997,,0.0010000007,0.7000000000218637
0.001000001,-0.10877806181312064,,0.001000001,0.9999999999073249
0.0010000010799999998,-0.10912788224357929,,0.0010000010799999998,1
0.0010000012399999998,-0.10979435990304941,,0.0010000012399999998,1
0.0010000015599999999,-0.1109463487106203,,0.0010000015599999999,1
0.0010000022,-0.11267668235432383,,0.0010000022,1
0.0010000034799999998,-0.1146595465100489,,0.0010000034799999998,1
0.0010000060399999995,-0.1159895894625367,,0.0010000060399999995,1
0.001000011159999999,-0.11620222606635254,,0.001000011159999999,1
0.0010000206056364216,-0.11615153967834642,,0.0010000206056364216,1
0.0010000385617780355,-0.11619773781044432,,0.0010000385617780355,1
0.0010000744740612632,-0.11620087964762592,,0.0010000744740612632,1
0.0010001462986277186,-0.11627729103354226,,0.0010001462986277186,1
0.0010002899477606294,-0.1163676326672784,,0.0010002899477606294,1
0.0010005772460264513,-0.11660722247426465,,0.0010005772460264513,1
0.0010011518425580947,-0.11702866233523694,,0.0010011518425580947,1
0.0010023010356213819,-0.11792658568536427,,0.0010023010356213819,1
0.001004599421747956,-0.11966021923186528,,0.001004599421747956,1
0.001009196194001104,-0.12315940079136126,,0.001009196194001104,1
0.0010183897385074004,-0.13000677161115295,,0.0010183897385074004,1
0.0010367768275199932,-0.1433854368746424,,0.0010367768275199932,1
0.0010735510055451785,-0.16866533184462063,,0.0010735510055451785,1
0.0011470993615955492,-0.21408133525022285,,0.0011470993615955492,1
0.0012470993615955493,-0.26604894743021373,,0.0012470993615955493,1
0.0013470993615955493,-0.3086016977058939,,0.0013470993615955493,1
0.0014470993615955494,-0.3433837774183887,,0.0014470993615955494,1
0.001500001,-0.3591389820699707,,0.001500001,1
0.0015000011,-0.36007057694339883,,0.0015000011,0.9000000000743196
0.0015000013,-0.3618246474369583,,0.0015000013,0.7000000000061184
0.0015000017000000002,-0.36475050559742755,,0.0015000017000000002,0.29999999986971615
0.001500002,-0.3665078633749654,,0.001500002,0
0.0015000020800000002,-0.3661580846255401,,0.0015000020800000002,0
0.0015000022400000002,-0.36549168673606525,,0.0015000022400000002,0
0.0015000025600000002,-0.36433983794951724,,0.0015000025600000002,0
0.0015000032000000003,-0.36260972249762924,,0.0015000032000000003,0
0.0015000044800000003,-0.3606271353363732,,0.0015000044800000003,0
0.0015000070400000007,-0.35929736212365865,,0.0015000070400000007,0
0.0015000121600000013,-0.359085001044533,,0.0015000121600000013,0
0.0015000224000000027,-0.3591367415104015,,0.0015000224000000027,0
0.0015000428800000052,-0.3590869911487389,,0.0015000428800000052,0
0.0015000838400000102,-0.3590849653464626,,0.0015000838400000102,0
0.0015001657600000203,-0.3590018520254741,,0.0015001657600000203,0
0.0015003296000000407,-0.3589071149709938,,0.0015003296000000407,0
0.0015006572800000814,-0.35864976726506276,,0.0015006572800000814,0
0.0015013126400001628,-0.3582018635342794,,0.0015013126400001628,0
0.0015026233600003256,-0.35724238274317327,,0.0015026233600003256,0
0.001505244800000651,-0.35539589360611606,,0.001505244800000651,0
0.001510487680001302,-0.35166722799347416,,0.001510487680001302,0
0.001520973440002604,-0.3443901185345669,,0.001520973440002604,0
0.0015419449600052079,-0.33022089417341544,,0.0015419449600052079,0
0.0015838880000104158,-0.30365571497196814,,0.0015838880000104158,0
0.0016677740800208317,-0.2566335824518082,,0.0016677740800208317,0
0.0017677740800208317,-0.2099924598961005,,0.0017677740800208317,0
0.0018677740800208318,-0.1717923246665261,,0.0018677740800208318,0
0.001967774080020832,-0.14057689556342085,,0.001967774080020832,0
0.002,-0.13177840334978652,,0.002,0
0.0020000001,-0.13084689752334844,,0.0020000001,0.10000000003410059
0.0020000003,-0.1290929949258863,,0.0020000003,0.30000000010230177
0.0020000007000000003,-0.12616741802803616,,0.0020000007000000003,0.7000000002387041
0.002000001,-0.12441023027002307,,0.002000001,0.9999999999073249
0.00200000108,-0.12476004838545308,,0.00200000108,1
0.00200000124,-0.12542652139005117,,0.00200000124,1
0.00200000156,-0.12657850079863728,,0.00200000156,1
0.0020000022,-0.1283088153407165,,0.0020000022,1
0.00200000348,-0.1302916405184009,,0.00200000348,1
0.0020000060399999998,-0.13162160413194118,,0.0020000060399999998,1
0.0020000111599999993,-0.13183408077420158,,0.0020000111599999993,1
0.002000021173544513,-0.13178267067704583,,0.002000021173544513,1
0.0020000399436817117,-0.13183056728537668,,0.0020000399436817117,1
0.002000077483956109,-0.13183219842547997,,0.002000077483956109,1
0.0020001525645049036,-0.13191028324346363,,0.0020001525645049036,1
0.0020003027256024933,-0.13199944163947586,,0.0020003027256024933,1
0.0020006030477976726,-0.13224109779092305,,0.0020006030477976726,1
0.002001203692188031,-0.13266226198363013,,0.002001203692188031,1
0.0020024049809687474,-0.1335639271809665,,0.0020024049809687474,1
0.002004807558530181,-0.13530040040720293,,0.002004807558530181,1
0.0020096127136530473,-0.13880846254462426,,0.0020096127136530473,1
0.00201922302389878,-0.1456647662973339,,0.00201922302389878,1
0.0020384436443902465,-0.15904851244042068,,0.0020384436443902465,1
0.0020768848853731786,-0.1842717623856447,,0.0020768848853731786,1
0.0021537673673390433,-0.22937175919249342,,0.0021537673673390433,1
0.002253767367339043,-0.27855797626355916,,0.002253767367339043,1
0.002353767367339043,-0.3188376714296418,,0.002353767367339043,1
0.002453767367339043,-0.3517573479102627,,0.002453767367339043,1
0.002500001,-0.3648779953402573,,0.002500001,1
0.0025000011,-0.3658095467110879,,0.0025000011,0.9000000000743196
0.0025000013,-0.36756353514352375,,0.0025000013,0.7000000000061184
0.0025000017,-0.3704892556776338,,0.0025000017,0.29999999986971615
0.0025000020000000003,-0.3722465301050058,,0.0025000020000000003,0
0.0025000020800000004,-0.37189673203270457,,0.0025000020800000004,0
0.0025000022400000006,-0.3712302972436832,,0.0025000022400000006,0
0.0025000025600000007,-0.3700783841776964,,0.0025000025600000007,0
0.0025000032000000007,-0.3683481703517096,,0.0025000032000000007,0
0.0025000044800000012,-0.3663654642154428,,0.0025000044800000012,0
0.0025000070400000023,-0.36503559173866695,,0.0025000070400000023,0
0.002500012160000004,-0.36482316091936545,,0.002500012160000004,0
0.0025000224000000073,-0.3648747869781704,,0.0025000224000000073,0
0.0025000428800000143,-0.3648247997470739,,0.0025000428800000143,0
0.0025000838400000285,-0.36482230536346205,,0.0025000838400000285,0
0.0025001657600000563,-0.36473825083500394,,0.0025001657600000563,0
0.002500329600000112,-0.3646416355874903,,0.002500329600000112,0
0.002500657280000224,-0.3643805297650803,,0.002500657280000224,0
0.0025013126400004475,-0.3639251206729833,,0.0025013126400004475,0
0.0025026233600008944,-0.36295065519013137,,0.0025026233600008944,0
0.002505244800001788,-0.3610743176232242,,0.002505244800001788,0
0.002510487680003576,-0.3572864187800715,,0.002510487680003576,0
0.002520973440007152,-0.34989269021767655,,0.002520973440007152,0
0.0025419449600143033,-0.3354974106494868,,0.0025419449600143033,0
0.002583888000028606,-0.3085074236391977,,0.002583888000028606,0
0.0026677740800572117,-0.260734304935367,,0.0026677740800572117,0
0.0027677740800572115,-0.21334759688967667,,0.0027677740800572115,0
0.0028677740800572113,-0.1745374352164591,,0.0028677740800572113,0
0.002967774080057211,-0.1428228957238375,,0.002967774080057211,0
0.003,-0.13388416280100826,,0.003,0
0.0030000001,-0.13295265658582947,,0.0030000001,0.10000000003410059
0.0030000003,-0.13119875320989677,,0.0030000003,0.30000000010230177
0.0030000007000000003,-0.12827317473201358,,0.0030000007000000003,0.7000000002387041
0.003000001,-0.12651598577164383,,0.003000001,0.9999999999073249
0.00300000108,-0.12686580356255175,,0.00300000108,1
0.00300000124,-0.12753227592461633,,0.00300000124,1
0.00300000156,-0.12868425403186756,,0.00300000156,1
0.0030000022,-0.13041456595033943,,0.0030000022,1
0.00300000348,-0.13239738581922586,,0.00300000348,1
0.0030000060399999998,-0.13372733870606202,,0.0030000060399999998,1
0.0030000111599999993,-0.13393979379431703,,0.0030000111599999993,1
0.003000021247602357,-0.13388829067739463,,0.003000021247602357,1
0.0030000401236706994,-0.13393639334035237,,0.0030000401236706994,1
0.0030000778758073844,-0.1339378211043312,,0.0030000778758073844,1
0.003000153380080754,-0.13401609298898912,,0.003000153380080754,1
0.0030003043886274935,-0.1341050503302824,,0.0030003043886274935,1
0.0030006064057209723,-0.1343468682860477,,0.0030006064057209723,1
0.00300121043990793,-0.1347677949388606,,0.00300121043990793,1
0.003002418508281846,-0.1356695324300049,,0.003002418508281846,1
0.0030048346450296773,-0.13740556064474407,,0.0030048346450296773,1
0.00300966691852534,-0.14091314899482968,,0.00300966691852534,1
0.0030193314655166652,-0.1477674136648609,,0.0030193314655166652,1
0.0030386605594993157,-0.16114558675351734,,0.0030386605594993157,1
0.003077318747464617,-0.1863497161257437,,0.003077318747464617,1
0.003154635123395219,-0.23138777911634595,,0.003154635123395219,1
0.003254635123395219,-0.28020727913851656,,0.003254635123395219,1
0.003354635123395219,-0.32018726846522566,,0.003354635123395219,1
0.0034546351233952187,-0.3528613958164571,,0.0034546351233952187,1
0.003500001,-0.365651180654485,,0.003500001,1
0.0035000011,-0.36658272647074863,,0.0035000011,0.9000000000743196
0.0035000013,-0.36833670443102196,,0.0035000013,0.7000000000061184
0.0035000017000000002,-0.37126240739447125,,0.0035000017000000002,0.29999999986971615
0.0035000020000000003,-0.37301967117586815,,0.0035000020000000003,0
0.0035000020800000004,-0.3726698706339039,,0.0035000020800000004,0
0.0035000022400000007,-0.37200343112793033,,0.0035000022400000007,0
0.0035000025600000007,-0.37085150984593973,,0.0035000025600000007,0
0.0035000032000000007,-0.3691212834357706,,0.0035000032000000007,0
0.0035000044800000013,-0.36713856203009776,,0.0035000044800000013,0
0.0035000070400000023,-0.3658086766895314,,0.0035000070400000023,0
0.003500012160000004,-0.36559623655401097,,0.003500012160000004,0
0.0035000224000000073,-0.36564784717696763,,0.0035000224000000073,0
0.0035000428800000143,-0.3655978280467956,,0.0035000428800000143,0
0.0035000838400000285,-0.365595270523039,,0.0035000838400000285,0
0.0035001657600000563,-0.36551108919925757,,0.0035001657600000563,0
0.003500329600000112,-0.365414220902871,,0.003500329600000112,0
0.003500657280000224,-0.3651526087752981,,0.003500657280000224,0
0.0035013126400004475,-0.3646961885124761,,0.0035013126400004475,0
0.0035026233600008944,-0.36371970421997124,,0.0035026233600008944,0
0.003505244800001788,-0.361839345304654,,0.003505244800001788,0
0.003510487680003576,-0.3580434662518375,,0.003510487680003576,0
0.003520973440007152,-0.3506340261314918,,0.003520973440007152,0
0.0035419449600143033,-0.33620829120407786,,0.0035419449600143033,0
0.003583888000028606,-0.30916107180391417,,0.003583888000028606,0
0.0036677740800572117,-0.26128677622989555,,0.0036677740800572117,0
0.0037677740800572115,-0.21379961890657173,,0.0037677740800572115,0
0.0038677740800572113,-0.17490727121261695,,0.0038677740800572113,0
0.003967774080057211,-0.14312548888765733,,0.003967774080057211,0
0.004,-0.13416786199242525,,0.004,0
0.0040000001,-0.13323635573057274,,0.0040000001,0.09999999960041972
0.0040000003,-0.13148245224643895,,0.0040000003,0.2999999996686209
0.0040000007,-0.12855687355481263,,0.0040000007,0.6999999998050233
0.0040000009999999996,-0.12679968443165127,,0.0040000009999999996,0.999999999473644
0.004000001079999999,-0.12714950217548343,,0.004000001079999999,1
0.0040000012399999995,-0.1278159744480982,,0.0040000012399999995,1
0.004000001559999999,-0.1289679523809694,,0.004000001559999999,1
0.004000002199999999,-0.13069826394407918,,0.004000002199999999,1
0.004000003479999998,-0.13268108309915033,,0.004000003479999998,1
0.004000006039999997,-0.1340110345413888,,0.004000006039999997,1
0.004000011159999994,-0.13422348672629453,,0.004000011159999994,1
0.0040000212575382965,-0.13417197114688717,,0.0040000212575382965,1
0.00400004014781523,-0.13422010118899474,,0.00400004014781523,1
0.004000077928369099,-0.1342215015480729,,0.004000077928369099,1
0.004000153489476836,-0.1342997979777605,,0.004000153489476836,1
0.00400030461169231,-0.13438872750713998,,0.00400030461169231,1
0.004000606856123258,-0.13463056525186753,,0.004000606856123258,1
0.0040012113449851535,-0.135051456434278,,0.0040012113449851535,1
0.004002420322708944,-0.1359531962074248,,0.004002420322708944,1
0.004004838278156526,-0.13768915016445485,,0.004004838278156526,1
0.004009674189051689,-0.14119664583783342,,0.004009674189051689,1
0.004019346010842015,-0.14805057981122377,,0.004019346010842015,1
0.004038689654422668,-0.16142789417429926,,0.004038689654422668,1
0.004077376941583973,-0.1866292498854238,,0.004077376941583973,1
0.004154751515906584,-0.23165863745266863,,0.004154751515906584,1
0.004254751515906584,-0.2804288680365149,,0.004254751515906584,1
0.004354751515906584,-0.32036859086536856,,0.004354751515906584,1
0.004454751515906585,-0.3530097280557289,,0.004454751515906585,1
0.004500001,-0.3657553498737589,,0.004500001,1
0.0045000011,-0.36668689494155976,,0.0045000011,0.9000000005080004
0.0045000013,-0.36844087150497196,,0.0045000013,0.7000000004397993
0.0045000017,-0.3713665721164123,,0.0045000017,0.300000000303397
0.004500002,-0.3731238344794726,,0.004500002,0
0.00450000208,-0.37277403360125144,,0.00450000208,0
0.00450000224,-0.3721075934674054,,0.00450000224,0
0.004500002560000001,-0.3709556710860966,,0.004500002560000001,0
0.004500003200000001,-0.36922544298978116,,0.004500003200000001,0
0.004500004480000001,-0.36724271954012805,,0.004500004480000001,0
0.004500007040000002,-0.36591283247503115,,0.004500007040000002,0
0.004500012160000004,-0.36570039108607394,,0.004500012160000004,0
0.004500022400000007,-0.3657519996288342,,0.004500022400000007,0
0.004500042880000014,-0.3657019762013577,,0.004500042880000014,0
0.004500083840000028,-0.3656994101705907,,0.004500083840000028,0
0.004500165760000056,-0.3656152117642598,,0.004500165760000056,0
0.004500329600000112,-0.36551830937498736,,0.004500329600000112,0
0.0045006572800002234,-0.3652566290344381,,0.0045006572800002234,0
0.004501312640000447,-0.3648000725388943,,0.004501312640000447,0
0.004502623360000894,-0.3638233162574901,,0.004502623360000894,0
0.004505244800001788,-0.36194241555580153,,0.004505244800001788,0
0.004510487680003576,-0.3581454613496865,,0.004510487680003576,0
0.0045209734400071516,-0.3507339044505039,,0.0045209734400071516,0
0.004541944960014303,-0.3363040663495398,,0.004541944960014303,0
0.004583888000028606,-0.3092491361735078,,0.004583888000028606,0
0.004667774080057211,-0.2613612092950203,,0.004667774080057211,0
0.0047677740800572115,-0.21386051869346848,,0.0047677740800572115,0
0.004867774080057212,-0.1749570982843247,,0.004867774080057212,0
0.004967774080057212,-0.14316625650181491,,0.004967774080057212,0
0.005,-0.1342060840695384,,0.005,0
0.005000000100000001,-0.13327457779133817,,0.005000000100000001,0.10000000046778146
0.005000000300000001,-0.13152067429695233,,0.005000000300000001,0.30000000053598264
0.005000000700000001,-0.12859509557735152,,0.005000000700000001,0.700000000672385
0.0050000010000000004,-0.12683790643511264,,0.0050000010000000004,1
0.00500000108,-0.12718772417756596,,0.00500000108,1
