X--Trace 1::[transient: TIME],Y--Trace 1::[PR2: V(2)],,X--Trace 2::[transient: TIME],Y--Trace 2::[PR1: V(3)]
0,0.000004988725319868277,,0,0
6.25e-7,0.000003814743534240387,,6.25e-7,0.001963494146845236
6.786638693856174e-7,0.000003700739479931788,,6.786638693856174e-7,0.0021320838109842276
7.859916081568522e-7,0.000003454396772995708,,7.859916081568522e-7,0.002469262952672398
0.0000010006470856993219,0.0000028531338822537585,,0.0000010006470856993219,0.0031436203555204522
0.000001429958040784261,0.0000012164169683720027,,0.000001429958040784261,0.0044923305657530175
0.0000022885799509541393,-0.0000037937770396802804,,0.0000022885799509541393,0.0071897240176030065
0.000004005823771293896,-0.000020760184901880432,,0.000004005823771293896,0.012584334353792791
0.000007440311411973409,-0.0000824687581970895,,0.000007440311411973409,0.023372299239965248
0.000014309286693332436,-0.0003169045116042053,,0.000014309286693332436,0.04493881056166645
0.00002804723725605049,-0.0012289051124665879,,0.00002804723725605049,0.08799902202618705
0.0000555231383814866,-0.004813543070809876,,0.0000555231383814866,0.17354788241275584
0.00011047494063235881,-0.018862169249103763,,0.00011047494063235881,0.3401414026332953
0.00017297494063235882,-0.04544834723611325,,0.00017297494063235882,0.5170636061804385
0.00023547494063235882,-0.08227300757224887,,0.00023547494063235882,0.6741153453146783
0.0002979749406323588,-0.1278463215687974,,0.0002979749406323588,0.8052612097767162
0.0003604749406323588,-0.18034271942353952,,0.0003604749406323588,0.9054613375427241
0.0004229749406323588,-0.23767104407540418,,0.0004229749406323588,0.9708650938955332
0.0004854749406323588,-0.2975549091863469,,0.0004854749406323588,0.9989590491573543
0.0005479749406323588,-0.3576201776584391,,0.0005479749406323588,0.9886635683827473
0.0006104749406323589,-0.4154861944158904,,0.0006104749406323589,0.940374301124108
0.0006729749406323589,-0.4688572719465921,,0.0006729749406323589,0.855946976841253
0.000735474940632359,-0.5156109083461319,,0.000735474940632359,0.7386260902589833
0.000797974940632359,-0.55387935221263,,0.000797974940632359,0.5929202172543445
0.0008604749406323591,-0.5821213753811679,,0.0008604749406323591,0.42442875281410974
0.0009229749406323591,-0.5991814998292568,,0.0009229749406323591,0.2396267294256155
0.0009854749406323592,-0.6043343981794516,,0.0009854749406323592,0.04561598520951289
0.0010479749406323592,-0.5973127660291462,,0.0010479749406323592,-0.15014775573645206
0.0011104749406323593,-0.5783175904733481,,0.0011104749406323593,-0.3401414026332967
0.0011729749406323594,-0.5480104247223828,,0.0011729749406323594,-0.5170636061804395
0.0012354749406323594,-0.5074879611813687,,0.0012354749406323594,-0.6741153453146794
0.0012979749406323595,-0.45823988464835363,,0.0012979749406323595,-0.8052612097767172
0.0013604749406323595,-0.40209162079473315,,0.0013604749406323595,-0.9054613375427248
0.0014229749406323596,-0.34113418458540884,,0.0014229749406323596,-0.9708650938955337
0.0014854749406323596,-0.2776438200111502,,0.0014854749406323596,-0.9989590491573545
0.0015479749406323597,-0.21399452384591827,,0.0015479749406323597,-0.9886635683827468
0.0016104749406323597,-0.15256681057962168,,0.0016104749406323597,-0.940374301124107
0.0016729749406323598,-0.09565622915058643,,0.0016729749406323598,-0.8559469768412514
0.0017354749406323599,-0.0453851426168565,,0.0017354749406323599,-0.7386260902589818
0.00179797494063236,-0.0036211655349700136,,0.00179797494063236,-0.5929202172543421
0.00186047494063236,0.02809461105861793,,0.00186047494063236,-0.424428752814107
0.00192297494063236,0.04860684427979282,,0.00192297494063236,-0.23962672942561258
0.00198547494063236,0.057190342183007364,,0.00198547494063236,-0.045615985209510795
0.00204797494063236,0.05357793381826911,,0.00204797494063236,0.15014775573645414
0.00211047494063236,0.0379707400369929,,0.00211047494063236,0.3401414026332986
0.00217297494063236,0.011030445837300678,,0.00217297494063236,0.5170636061804417
0.00223547494063236,-0.026146124273959258,,0.00223547494063236,0.6741153453146806
0.00229797494063236,-0.07206915535507681,,0.00229797494063236,0.8052612097767182
0.00236047494063236,-0.12491309126705018,,0.00236047494063236,0.905461337542726
0.0024229749406323602,-0.1825867885250233,,0.0024229749406323602,0.9708650938955343
0.0024854749406323603,-0.24281387428444456,,0.0024854749406323603,0.9989590491573546
0.0025479749406323604,-0.30322022485493355,,0.0025479749406323604,0.9886635683827465
0.0026104749406323604,-0.36142519848657717,,0.0026104749406323604,0.9403743011241065
0.0026729749406323605,-0.4151331209082437,,0.0026729749406323605,0.8559469768412501
0.0027354749406323605,-0.462221503375864,,0.0027354749406323605,0.7386260902589802
0.0027979749406323606,-0.5008226075640336,,0.0027979749406323606,0.5929202172543414
0.0028604749406323606,-0.5293952183046999,,0.0028604749406323606,0.4244287528141055
0.0029229749406323607,-0.546783870489391,,0.0029229749406323607,0.2396267294256101
0.0029854749406323607,-0.5522632495760806,,0.0029854749406323607,0.045615985209508256
0.003047974940632361,-0.5455660639157397,,0.003047974940632361,-0.15014775573645753
0.003110474940632361,-0.5268933132793541,,0.003110474940632361,-0.340141402633301
0.003172974940632361,-0.49690656347237894,,0.003172974940632361,-0.5170636061804431
0.003235474940632361,-0.45670251941845086,,0.003235474940632361,-0.6741153453146832
0.003297974940632361,-0.40777087835426884,,0.003297974940632361,-0.8052612097767197
0.003360474940632361,-0.35193707831424254,,0.003360474940632361,-0.9054613375427271
0.003422974940632361,-0.29129214654738966,,0.003422974940632361,-0.9708650938955351
0.003485474940632361,-0.22811233925392144,,0.003485474940632361,-0.9989590491573547
0.0035479749406323612,-0.16477166533930027,,0.0035479749406323612,-0.9886635683827462
0.0036104749406323613,-0.10365065135121214,,0.0036104749406323613,-0.9403743011241054
0.0036729749406323614,-0.047044858208765056,,0.0036729749406323614,-0.8559469768412493
0.0037354749406323614,0.00292333912199998,,0.0037354749406323614,-0.7386260902589791
0.0037979749406323615,0.04438631425260953,,0.0037979749406323615,-0.5929202172543386
0.0038604749406323615,0.07580296438653106,,0.0038604749406323615,-0.4244287528141024
0.003922974940632361,0.09601793495471247,,0.003922974940632361,-0.2396267294256085
0.003985474940632361,0.10430602239761125,,0.003985474940632361,-0.0456159852095066
0.004047974940632361,0.1004000442254688,,0.004047974940632361,0.15014775573645742
0.004110474940632361,0.08450110981997194,,0.004110474940632361,0.34014140263330256
0.004172974940632361,0.057270892782844654,,0.004172974940632361,0.5170636061804444
0.004235474940632361,0.019806206293682446,,0.004235474940632361,0.6741153453146831
0.0042979749406323615,-0.0264031459606157,,0.0042979749406323615,0.8052612097767207
0.0043604749406323615,-0.07953161902759552,,0.0043604749406323615,0.905461337542727
0.004422974940632362,-0.1374880805373839,,0.004422974940632362,0.9708650938955351
0.004485474940632362,-0.1979961686930196,,0.004485474940632362,0.9989590491573547
0.004547974940632362,-0.2586817707810142,,0.004547974940632362,0.9886635683827463
0.004610474940632362,-0.31716425596181375,,0.004610474940632362,0.9403743011241048
0.004672974940632362,-0.37114796080480295,,0.004672974940632362,0.8559469768412475
0.004735474940632362,-0.41851040734074596,,0.004735474940632362,0.7386260902589767
0.004797974940632362,-0.45738386795007324,,0.004797974940632362,0.5929202172543373
0.004860474940632362,-0.4862271381057225,,0.004860474940632362,0.4244287528141009
0.004922974940632362,-0.5038847632720487,,0.004922974940632362,0.23962672942560692
0.004985474940632362,-0.5096314394158361,,0.004985474940632362,0.045615985209503176
0.005047974940632362,-0.503199885329527,,0.005047974940632362,-0.1501477557364608
0.005110474940632362,-0.4847911111623796,,0.005110474940632362,-0.34014140263330583
0.005172974940632362,-0.45506669303159586,,0.005172974940632362,-0.5170636061804474
0.005235474940632362,-0.41512334611016943,,0.005235474940632362,-0.6741153453146856
0.005297974940632362,-0.366450777818433,,0.005297974940632362,-0.8052612097767217
0.005360474940632362,-0.3108744363128382,,0.005360474940632362,-0.9054613375427276
0.0054229749406323625,-0.25048535889951584,,0.0054229749406323625,-0.9708650938955359
0.0054854749406323625,-0.18755981177498604,,0.0054854749406323625,-0.9989590491573548
0.005547974940632363,-0.12447181377687525,,0.005547974940632363,-0.9886635683827457
0.005610474940632363,-0.06360190132500709,,0.005610474940632363,-0.9403743011241036
0.005672974940632363,-0.007245645147256274,,0.005672974940632363,-0.8559469768412467
0.005735474940632363,0.04247457004082699,,0.005735474940632363,-0.7386260902589756
0.005797974940632363,0.08369110816386655,,0.005797974940632363,-0.5929202172543332
0.005860474940632363,0.11486285679692594,,0.005860474940632363,-0.4244287528140978
0.005922974940632363,0.13483445180440062,,0.005922974940632363,-0.2396267294256036
0.005985474940632363,0.14288068011794475,,0.005985474940632363,-0.045615985209501525
0.006047974940632363,0.1387343498001024,,0.006047974940632363,0.15014775573646244
0.006110474940632363,0.12259656084187204,,0.006110474940632363,0.3401414026333057
0.006172974940632363,0.09512897751465885,,0.006172974940632363,0.5170636061804503
0.006235474940632363,0.057428403724017446,,0.006235474940632363,0.6741153453146882
0.006297974940632363,0.01098463394244872,,0.006297974940632363,0.8052612097767237
0.006360474940632363,-0.04237679603643532,,0.006360474940632363,0.9054613375427292
0.006422974940632363,-0.10056476294267958,,0.006422974940632363,0.9708650938955359
0.006485474940632363,-0.16130291402439764,,0.006485474940632363,0.9989590491573549
0.0065479749406323635,-0.22221714555496094,,0.0065479749406323635,0.9886635683827452
0.0066104749406323635,-0.28092683562753606,,0.0066104749406323635,0.9403743011241025
0.006672974940632364,-0.3351363296867141,,0.006672974940632364,0.8559469768412449
0.006735474940632364,-0.3827231585850214,,0.006735474940632364,0.7386260902589733
0.006797974940632364,-0.4218196034678279,,0.006797974940632364,0.5929202172543333
0.006860474940632364,-0.4508844685202539,,0.006860474940632364,0.4244287528140979
0.006922974940632364,-0.468762307862697,,0.006922974940632364,0.23962672942560026
0.006985474940632364,-0.47472782606590547,,0.006985474940632364,0.0456159852094981
0.007047974940632364,-0.4685137504708198,,0.007047974940632364,-0.15014775573646583
0.007110474940632364,-0.450321099723788,,0.007110474940632364,-0.34014140263330894
0.007172974940632364,-0.4208114583843028,,0.007172974940632364,-0.5170636061804502
0.007235474940632364,-0.3810815500169005,,0.007235474940632364,-0.6741153453146906
0.007297974940632364,-0.3326210903793164,,0.007297974940632364,-0.8052612097767258
0.007360474940632364,-0.2772555359153092,,0.007360474940632364,-0.9054613375427306
0.007422974940632364,-0.21707593216482685,,0.007422974940632364,-0.9708650938955367
0.007485474940632364,-0.15435855350875619,,0.007485474940632364,-0.9989590491573549
0.007547974940632364,-0.09147742691624139,,0.007547974940632364,-0.9886635683827447
0.007610474940632364,-0.030813096889811556,,0.007610474940632364,-0.9403743011241013
0.0076729749406323645,0.025338857812168564,,0.0076729749406323645,-0.8559469768412431
0.0077354749406323645,0.07485604449184237,,0.0077354749406323645,-0.7386260902589711
0.007797974940632365,0.11587081914311657,,0.007797974940632365,-0.5929202172543305
0.007860474940632365,0.14684206145789974,,0.007860474940632365,-0.4244287528140948
0.007922974940632365,0.16661439946840342,,0.007922974940632365,-0.23962672942560037
0.007985474940632365,0.17446261232104657,,0.007985474940632365,-0.04561598520949467
0.008047974940632365,0.17011950034349876,,0.008047974940632365,0.1501477557364692
0.008110474940632365,0.15378615583822677,,0.008110474940632365,0.34014140263331216
0.008172974940632365,0.12612423543786166,,0.008172974940632365,0.5170636061804532
0.008235474940632365,0.0882305354549286,,0.008235474940632365,0.6741153453146906
0.008297974940632365,0.04159484281806046,,0.008297974940632365,0.8052612097767278
0.008360474940632365,-0.011957314177844713,,0.008360474940632365,0.9054613375427321
0.008422974940632365,-0.07033481971297163,,0.008422974940632365,0.9708650938955375
0.008485474940632365,-0.1312613284410041,,0.008485474940632365,0.9989590491573551
0.008547974940632365,-0.19236274399289027,,0.008547974940632365,0.9886635683827447
0.008610474940632365,-0.25125845177538,,0.008610474940632365,0.9403743011241013
0.008672974940632365,-0.3056528044992278,,0.008672974940632365,0.8559469768412432
0.008735474940632365,-0.3534233402396993,,0.008735474940632365,0.7386260902589712
0.008797974940632365,-0.39270234731804976,,0.008797974940632365,0.5929202172543306
0.008860474940632366,-0.4219486370524236,,0.008860474940632366,0.4244287528140949
0.008922974940632366,-0.44000677064994775,,0.008922974940632366,0.23962672942560048
0.008985474940632366,-0.44615145972579306,,0.008985474940632366,0.04561598520949479
0.009047974940632366,-0.44011543861958063,,0.009047974940632366,-0.1501477557364691
0.009110474940632366,-0.42209973293458075,,0.009110474940632366,-0.3401414026333187
0.009172974940632366,-0.3927659341420122,,0.009172974940632366,-0.5170636061804592
0.009235474940632366,-0.35321077267692025,,0.009235474940632366,-0.6741153453146957
0.009297974940632366,-0.3049239711228918,,0.009297974940632366,-0.8052612097767298
0.009360474940632366,-0.24973099270885457,,0.009360474940632366,-0.9054613375427335
0.009422974940632366,-0.18972288971579976,,0.009422974940632366,-0.9708650938955392
0.009485474940632366,-0.12717594322550385,,0.009485474940632366,-0.9989590491573554
0.009547974940632366,-0.06446418686440036,,0.009547974940632366,-0.9886635683827436
0.009610474940632366,-0.003968171752674751,,0.009610474940632366,-0.9403743011241001
0.009672974940632366,0.05201651677673247,,0.009672974940632366,-0.8559469768412414
0.009735474940632366,0.10136747949050699,,0.009735474940632366,-0.7386260902589689
0.009797974940632366,0.14221706588966587,,0.009797974940632366,-0.592920217254325
0.009860474940632366,0.17302414921183756,,0.009860474940632366,-0.4244287528140886
0.009922974940632366,0.19263335107701562,,0.009922974940632366,-0.2396267294255937
0.009985474940632367,0.20031944425750817,,0.009985474940632367,-0.045615985209491366
0.010047974940632367,0.19581522274843588,,0.010047974940632367,0.1501477557364725
0.010110474940632367,0.1793217725573278,,0.010110474940632367,0.3401414026333186
0.010172974940632367,0.15150074406294567,,0.010172974940632367,0.5170636061804591
0.010235474940632367,0.11344892736106639,,0.010235474940632367,0.6741153453146956
0.010297974940632367,0.06665610320415608,,0.010297974940632367,0.8052612097767298
0.010360474940632367,0.012947793747582953,,0.010360474940632367,0.9054613375427334
0.010422974940632367,-0.045584891288268224,,0.010422974940632367,0.9708650938955383
0.010485474940632367,-0.10666561262035175,,0.010485474940632367,0.9989590491573552
0.010547974940632367,-0.1679202799032626,,0.010547974940632367,0.9886635683827442
0.010610474940632367,-0.22696828453170972,,0.010610474940632367,0.9403743011240989
0.010672974940632367,-0.2815139851652522,,0.010672974940632367,0.8559469768412397
0.010735474940632367,-0.3294349257927385,,0.010735474940632367,0.7386260902589664
0.010797974940632367,-0.36886340061031647,,0.010797974940632367,0.5929202172543251
0.010860474940632367,-0.3982582267762609,,0.010860474940632367,0.4244287528140887
0.010922974940632367,-0.416463971299597,,0.010922974940632367,0.23962672942559382
0.010985474940632367,-0.42275535156308675,,0.010985474940632367,0.045615985209491484
0.011047974940632367,-0.4168651076361624,,0.011047974940632367,-0.15014775573647238
0.011110474940632368,-0.39899427081804617,,0.011110474940632368,-0.3401414026333218
0.011172974940632368,-0.3698044382385764,,0.011172974940632368,-0.517063606180462
0.011235474940632368,-0.33039234595800165,,0.011235474940632368,-0.6741153453146982
0.011297974940632368,-0.28224772214822064,,0.011297974940632368,-0.8052612097767318
0.011360474940632368,-0.22719603559349535,,0.011360474940632368,-0.905461337542735
0.011422974940632368,-0.16732834409369465,,0.011422974940632368,-0.9708650938955409
0.011485474940632368,-0.1049209342169272,,0.011485474940632368,-0.9989590491573558
0.011547974940632368,-0.04234784503993322,,0.011547974940632368,-0.9886635683827426
0.011610474940632368,0.018010366898914158,,0.011610474940632368,-0.9403743011240978
0.011672974940632368,0.07385811088408757,,0.011672974940632368,-0.8559469768412379
0.011735474940632368,0.12307298233138289,,0.011735474940632368,-0.7386260902589642
0.011797974940632368,0.1637873254261088,,0.011797974940632368,-0.5929202172543223
0.011860474940632368,0.1944600081214659,,0.011860474940632368,-0.4244287528140856
0.011922974940632368,0.2139356467877867,,0.011922974940632368,-0.2396267294255905
0.011985474940632368,0.22148900897858761,,0.011985474940632368,-0.04561598520948806
0.012047974940632368,0.2168528835045552,,0.012047974940632368,0.15014775573647576
0.012110474940632368,0.20022835121924784,,0.012110474940632368,0.34014140263332504
0.012172974940632368,0.1722770573814098,,0.012172974940632368,0.517063606180465
0.012235474940632369,0.1340957869968633,,0.012235474940632369,0.6741153453147007
0.012297974940632369,0.08717431576167325,,0.012297974940632369,0.8052612097767338
0.012360474940632369,0.033338160804473375,,0.012360474940632369,0.9054613375427364
0.012422974940632369,-0.025321573147926445,,0.012422974940632369,0.97086509389554
0.012485474940632369,-0.08652855177678001,,0.012485474940632369,0.9989590491573556
0.012547974940632369,-0.14790868966821163,,0.012547974940632369,0.9886635683827432
0.012610474940632369,-0.20708138311957042,,0.012610474940632369,0.940374301124099
0.012672974940632369,-0.26175099566066984,,0.012672974940632369,0.8559469768412398
0.012735474940632369,-0.30979507612210466,,0.012735474940632369,0.7386260902589619
0.012797974940632369,-0.34934592350976396,,0.012797974940632369,0.5929202172543195
0.012860474940632369,-0.3788623597635319,,0.012860474940632369,0.4244287528140825
0.01292297494063237,-0.39718895664241305,,0.01292297494063237,0.23962672942558716
0.01298547494063237,-0.4036004362513891,,0.01298547494063237,0.045615985209484636
0.01304797494063237,-0.3978295433508514,,0.01304797494063237,-0.15014775573647915
0.01311047494063237,-0.3800773139035901,,0.01311047494063237,-0.34014140263332826
0.01317297494063237,-0.3510053496721165,,0.01317297494063237,-0.5170636061804679
0.01323547494063237,-0.3117103913223236,,0.01323547494063237,-0.6741153453147033
0.01329797494063237,-0.2636821716012213,,0.01329797494063237,-0.8052612097767359
0.01336047494063237,-0.20874616384151143,,0.01336047494063237,-0.9054613375427378
0.01342297494063237,-0.148993430361327,,0.01342297494063237,-0.9708650938955408
0.01348547494063237,-0.08670026222072358,,0.01348547494063237,-0.9989590491573557
0.01354797494063237,-0.024240702958564186,,0.01354797494063237,-0.9886635683827416
0.01361047494063237,0.036004686450622506,,0.01361047494063237,-0.9403743011240955
0.01367297494063237,0.09174031088462963,,0.01367297494063237,-0.8559469768412343
0.01373547494063237,0.14084376137819593,,0.01373547494063237,-0.7386260902589595
0.01379797494063237,0.18144737776470532,,0.01379797494063237,-0.5929202172543168
0.01386047494063237,0.21201002367071534,,0.01386047494063237,-0.4244287528140794
0.01392297494063237,0.231376311168708,,0.01392297494063237,-0.23962672942558383
0.01398547494063237,0.23882100353929467,,0.01398547494063237,-0.04561598520948121
0.01404797494063237,0.23407688534871446,,0.01404797494063237,0.15014775573648254
0.01411047494063237,0.217345033230691,,0.01411047494063237,0.3401414026333248
0.01417297494063237,0.1892870882522602,,0.01417297494063237,0.5170636061804648
