X--Trace 1::[transient: TIME],Y--Trace 1::[PR2: V(2)],,X--Trace 2::[transient: TIME],Y--Trace 2::[PR1: V(3)]
0,4.979949698829673e-7,,0,0
6.25e-7,-6.75298774339133e-7,,6.25e-7,0.001963494146845236
6.703963353984258e-7,-7.704878170872675e-7,,6.703963353984258e-7,0.0021061106452648875
7.611890061952774e-7,-9.740442584253492e-7,,7.611890061952774e-7,0.0023913435106914095
9.427743477889805e-7,-0.0000014588101651231942,,9.427743477889805e-7,0.002961808634672233
0.0000013059450309763869,-0.000002738759429480476,,0.0000013059450309763869,0.004102735805377204
0.0000020322863973511994,-0.000006539875395625166,,0.0000020322863973511994,0.006384572639638004
0.0000034849691301008246,-0.000019102262779981136,,0.0000034849691301008246,0.010948134695060197
0.000006390334595600075,-0.0000640305072594124,,0.000006390334595600075,0.02007447969014458
0.000012201065526598576,-0.00023279492236435507,,0.000012201065526598576,0.03832139227402173
0.000023822527388595577,-0.0008833864779543787,,0.000023822527388595577,0.07477083124220381
0.00004706545111258958,-0.0034143373567204066,,0.00004706545111258958,0.14732229206388964
0.00009355129856057759,-0.013185557814398285,,0.00009355129856057759,0.2896872612736755
0.0001560512985605776,-0.035432419280431275,,0.0001560512985605776,0.4708461153835896
0.0002185512985605776,-0.0667619526542286,,0.0002185512985605776,0.633910617332856
0.00028105129856057756,-0.10533718904590936,,0.00028105129856057756,0.7726142897591906
0.00034355129856057756,-0.1490810748791353,,0.00034355129856057756,0.881626828317165
0.00040605129856057757,-0.19575396620200397,,0.00040605129856057757,0.9567589422849321
0.00046855129856057757,-0.2430375134420658,,0.00046855129856057757,0.9951233466572856
0.0005310512985605776,-0.2886217018728615,,0.0005310512985605776,0.995245718889202
0.0005935512985605776,-0.33029169740108943,,0.0005935512985605776,0.9571213562844355
0.0006560512985605777,-0.3660111501553274,,0.0006560512985605777,0.8822153567174985
0.0007185512985605777,-0.39399875003398754,,0.0007185512985605777,0.77340631574398
0.0007810512985605778,-0.4127950830278996,,0.0007810512985605778,0.6348757037876791
0.0008435512985605778,-0.4213172153660261,,0.0008435512985605778,0.4719471745772141
0.0009060512985605779,-0.41889889943060127,,0.0009060512985605779,0.29088198011877187
0.000968551298560578,-0.4053148533842137,,0.000968551298560578,0.09863835429285818
0.001031051298560578,-0.3807881737311265,,0.001031051298560578,-0.09739588817150278
0.001093551298560578,-0.34598059363304423,,0.001093551298560578,-0.2896872612736767
0.0011560512985605781,-0.30196595423080125,,0.0011560512985605781,-0.47084611538359133
0.0012185512985605782,-0.25018790670630886,,0.0012185512985605782,-0.6339106173328574
0.0012810512985605782,-0.192403463992527,,0.0012810512985605782,-0.7726142897591916
0.0013435512985605783,-0.1306145701638073,,0.0013435512985605783,-0.8816268283171658
0.0014060512985605783,-0.06699031115286033,,0.0014060512985605783,-0.956758942284933
0.0014685512985605784,-0.003782755393884012,,0.0014685512985605784,-0.9951233466572859
0.0015310512985605785,0.056760347096107486,,0.0015310512985605785,-0.9952457188892017
0.0015935512985605785,0.1124826526789403,,0.0015935512985605785,-0.9571213562844347
0.0016560512985605786,0.16140275767355927,,0.0016560512985605786,-0.8822153567174974
0.0017185512985605786,0.20179096746263167,,0.0017185512985605786,-0.7734063157439784
0.0017810512985605787,0.23223635592263175,,0.0017810512985605787,-0.6348757037876771
0.0018435512985605787,0.25170153787588434,,0.0018435512985605787,-0.47194717457721186
0.0019060512985605788,0.25956305439081995,,0.0019060512985605788,-0.290881980118769
0.001968551298560579,0.2556358184312376,,0.001968551298560579,-0.09863835429285565
0.002031051298560579,0.24018068586864127,,0.002031051298560579,0.09739588817150577
0.002093551298560579,0.21389486015533568,,0.002093551298560579,0.28968726127367955
0.002156051298560579,0.1778855036235803,,0.002156051298560579,0.47084611538359356
0.002218551298560579,0.13362756855144076,,0.002218551298560579,0.6339106173328597
0.002281051298560579,0.08290747254801441,,0.002281051298560579,0.7726142897591932
0.002343551298560579,0.02775478163399525,,0.002343551298560579,0.881626828317167
0.0024060512985605792,-0.02963546975219498,,0.0024060512985605792,0.9567589422849334
0.0024685512985605793,-0.0869868379347479,,0.0024685512985605793,0.9951233466572861
0.0025310512985605793,-0.14202867432516397,,0.0025310512985605793,0.9952457188892013
0.0025935512985605794,-0.19258312513264664,,0.0025935512985605794,0.9571213562844337
0.0026560512985605795,-0.2366485795514407,,0.0026560512985605795,0.8822153567174962
0.0027185512985605795,-0.27247636113972196,,0.0027185512985605795,0.7734063157439762
0.0027810512985605796,-0.29863771174500925,,0.0027810512985605796,0.6348757037876751
0.0028435512985605796,-0.31407849551508016,,0.0028435512985605796,0.47194717457721036
0.0029060512985605797,-0.31815951741782594,,0.0029060512985605797,0.2908819801187666
0.0029685512985605797,-0.31068090864440256,,0.0029685512985605797,0.09863835429285402
0.00303105129856058,-0.2918896385400239,,0.00303105129856058,-0.0973958881715083
0.00309355129856058,-0.2624698662626935,,0.00309355129856058,-0.28968726127368283
0.00315605129856058,-0.2235164997947851,,0.00315605129856058,-0.47084611538359583
0.00321855129856058,-0.17649298037623018,,0.00321855129856058,-0.6339106173328609
0.00328105129856058,-0.12317491159761178,,0.00328105129856058,-0.7726142897591953
0.00334355129856058,-0.06558170147963428,,0.00334355129856058,-0.8816268283171682
0.00340605129856058,-0.005898841477895026,,0.00340605129856058,-0.9567589422849344
0.00346855129856058,0.05360618872894583,,0.00346855129856058,-0.9951233466572864
0.0035310512985605802,0.11067116189629182,,0.0035310512985605802,-0.9952457188892011
0.0035935512985605803,0.16312613457004232,,0.0035935512985605803,-0.9571213562844333
0.0036560512985605803,0.20897692748618546,,0.0036560512985605803,-0.8822153567174945
0.0037185512985605804,0.24648184472576878,,0.0037185512985605804,-0.7734063157439752
0.0037810512985605805,0.2742186862166417,,0.0037810512985605805,-0.6348757037876724
0.0038435512985605805,0.29113947610539886,,0.0038435512985605805,-0.47194717457720736
0.0039060512985605806,0.2966108066449752,,0.0039060512985605806,-0.290881980118765
0.003968551298560581,0.29043824494520437,,0.003968551298560581,-0.0986383542928506
0.004031051298560581,0.27287386743986664,,0.004031051298560581,0.09739588817150993
0.004093551298560581,0.24460663023345902,,0.004093551298560581,0.2896872612736827
0.004156051298560581,0.2067359481503245,,0.004156051298560581,0.4708461153835973
0.004218551298560581,0.16072949550912052,,0.004218551298560581,0.6339106173328622
0.004281051298560581,0.10836685304842143,,0.004281051298560581,0.7726142897591975
0.004343551298560581,0.051671164276578696,,0.004343551298560581,0.8816268283171707
0.004406051298560581,-0.007168569636891017,,0.004406051298560581,0.9567589422849354
0.004468551298560581,-0.06588157263019324,,0.004468551298560581,0.9951233466572867
0.004531051298560581,-0.12220252023697006,,0.004531051298560581,0.9952457188892008
0.004593551298560581,-0.17395856011240948,,0.004593551298560581,0.9571213562844323
0.004656051298560581,-0.21915277977882158,,0.004656051298560581,0.8822153567174937
0.004718551298560581,-0.2560409163733296,,0.004718551298560581,0.773406315743973
0.004781051298560581,-0.28319835783290354,,0.004781051298560581,0.6348757037876712
0.004843551298560581,-0.29957486311477194,,0.004843551298560581,0.4719471745772043
0.0049060512985605815,-0.30453489594746025,,0.0049060512985605815,0.2908819801187617
0.0049685512985605815,-0.2978820245379359,,0.0049685512985605815,0.09863835429284895
0.0050310512985605816,-0.27986644694356794,,0.0050310512985605816,-0.09739588817151335
0.005093551298560582,-0.2511753553533232,,0.005093551298560582,-0.2896872612736877
0.005156051298560582,-0.21290650696089294,,0.005156051298560582,-0.4708461153836003
0.005218551298560582,-0.16652601953646123,,0.005218551298560582,-0.6339106173328649
0.005281051298560582,-0.11381201098739313,,0.005281051298560582,-0.7726142897591997
0.005343551298560582,-0.05678625126681599,,0.005343551298560582,-0.8816268283171714
0.005406051298560582,0.0023635493841225154,,0.005406051298560582,-0.9567589422849359
0.005468551298560582,0.06136782697452808,,0.005468551298560582,-0.9951233466572869
0.005531051298560582,0.11796239626892127,,0.005531051298560582,-0.9952457188892004
0.005593551298560582,0.16997547448984465,,0.005593551298560582,-0.9571213562844313
0.005656051298560582,0.21541115452342127,,0.005656051298560582,-0.8822153567174922
0.005718551298560582,0.2525261173203728,,0.005718551298560582,-0.773406315743972
0.005781051298560582,0.2798966380490637,,0.005781051298560582,-0.6348757037876699
0.005843551298560582,0.2964733085075937,,0.005843551298560582,-0.4719471745772013
0.005906051298560582,0.30162137540867034,,0.005906051298560582,-0.29088198011875843
0.005968551298560582,0.29514514187108154,,0.005968551298560582,-0.09863835429284554
0.0060310512985605825,0.2772954969423138,,0.0060310512985605825,0.097395888171515
0.0060935512985605825,0.24876028130463276,,0.0060935512985605825,0.2896872612736876
0.0061560512985605826,0.210637861960702,,0.0061560512985605826,0.4708461153836002
0.006218551298560583,0.1643949289130722,,0.006218551298560583,0.6339106173328676
0.006281051298560583,0.11181013823891137,,0.006281051298560583,0.7726142897592019
0.006343551298560583,0.054905764826453735,,0.006343551298560583,0.881626828317173
0.006406051298560583,-0.004130006132102285,,0.006406051298560583,0.9567589422849369
0.006468551298560583,-0.06302716509792804,,0.006468551298560583,0.9951233466572872
0.006531051298560583,-0.11952110767255861,,0.006531051298560583,0.9952457188892004
0.006593551298560583,-0.17143965793743432,,0.006593551298560583,0.9571213562844303
0.006656051298560583,-0.21678653884646967,,0.006656051298560583,0.8822153567174905
0.006718551298560583,-0.2538180844562408,,0.006718551298560583,0.7734063157439698
0.006781051298560583,-0.2811102434471322,,0.006781051298560583,0.6348757037876673
0.006843551298560583,-0.29761330153420756,,0.006843551298560583,0.4719471745772014
0.006906051298560583,-0.30269221728002216,,0.006906051298560583,0.29088198011875516
0.006968551298560583,-0.2961510237345157,,0.006968551298560583,0.09863835429284212
0.007031051298560583,-0.2782403556266523,,0.007031051298560583,-0.09739588817151841
0.007093551298560583,-0.2496478153509437,,0.007093551298560583,-0.2896872612736909
0.0071560512985605835,-0.2114715454466193,,0.0071560512985605835,-0.4708461153836032
0.0072185512985605835,-0.16517802567403167,,0.0072185512985605835,-0.6339106173328675
0.0072810512985605836,-0.11254571399286098,,0.0072810512985605836,-0.7726142897592018
0.007343551298560584,-0.05559669979823344,,0.007343551298560584,-0.8816268283171746
0.007406051298560584,0.003481006585872956,,0.007406051298560584,-0.9567589422849379
0.007468551298560584,0.06241755927364828,,0.007468551298560584,-0.9951233466572875
0.007531051298560584,0.11894850821827793,,0.007531051298560584,-0.9952457188892001
0.007593551298560584,0.17090182188121064,,0.007593551298560584,-0.9571213562844303
0.007656051298560584,0.21628135946293892,,0.007656051298560584,-0.882215356717489
0.007718551298560584,0.25334358239238247,,0.007718551298560584,-0.7734063157439677
0.007781051298560584,0.2806645596194833,,0.007781051298560584,-0.6348757037876647
0.007843551298560583,0.2971946892230626,,0.007843551298560583,-0.47194717457720153
0.007906051298560583,0.30229903593613416,,0.007906051298560583,-0.29088198011875527
0.007968551298560583,0.2957817319279166,,0.007968551298560583,-0.09863835429284225
0.008031051298560583,0.27789350565592597,,0.008031051298560583,0.09739588817152182
0.008093551298560583,0.24932204694623064,,0.008093551298560583,0.28968726127369415
0.008156051298560583,0.21116558108711145,,0.008156051298560583,0.47084611538360627
0.008218551298560584,0.1648906649565307,,0.008218551298560584,0.6339106173328701
0.008281051298560584,0.11227582957423626,,0.008281051298560584,0.7726142897592018
0.008343551298560584,0.0553432323513198,,0.008343551298560584,0.8816268283171745
0.008406051298560584,-0.003719051878327489,,0.008406051298560584,0.9567589422849379
0.008468551298560584,-0.06264111724476466,,0.008468551298560584,0.9951233466572875
0.008531051298560584,-0.11915845673644582,,0.008531051298560584,0.9952457188892001
0.008593551298560584,-0.1710989859184585,,0.008593551298560584,0.9571213562844304
0.008656051298560584,-0.21646651368489722,,0.008656051298560584,0.882215356717489
0.008718551298560584,-0.25351745482299076,,0.008718551298560584,0.7734063157439677
0.008781051298560584,-0.2808278338520075,,0.008781051298560584,0.6348757037876647
0.008843551298560584,-0.29734800772856973,,0.008843551298560584,0.4719471745771985
0.008906051298560584,-0.3024430019401211,,0.008906051298560584,0.2908819801187554
0.008968551298560584,-0.295916912404408,,0.008968551298560584,0.09863835429283883
0.009031051298560584,-0.2780204329090325,,0.009031051298560584,-0.0973958881715217
0.009093551298560584,-0.24944122132680746,,0.009093551298560584,-0.28968726127369404
0.009156051298560584,-0.21127747231394478,,0.009156051298560584,-0.47084611538360616
0.009218551298560584,-0.16499571458815035,,0.009218551298560584,-0.63391061733287
0.009281051298560584,-0.1123744521003492,,0.009281051298560584,-0.7726142897592017
0.009343551298560585,-0.055435817448541404,,0.009343551298560585,-0.8816268283171745
0.009406051298560585,0.0036321384577724337,,0.009406051298560585,-0.9567589422849379
0.009468551298560585,0.06255953160800987,,0.009468551298560585,-0.9951233466572875
0.009531051298560585,0.11908187614017052,,0.009531051298560585,-0.9952457188892001
0.009593551298560585,0.17102710687215475,,0.009593551298560585,-0.9571213562844304
0.009656051298560585,0.21639905139890353,,0.009656051298560585,-0.8822153567174891
0.009718551298560585,0.2534541414602922,,0.009718551298560585,-0.7734063157439678
0.009781051298560585,0.2807684181155474,,0.009781051298560585,-0.6348757037876593
0.009843551298560585,0.2972922532441396,,0.009843551298560585,-0.4719471745771924
0.009906051298560585,0.30239068696656446,,0.009906051298560585,-0.2908819801187487
0.009968551298560585,0.2958678283322076,,0.009968551298560585,-0.09863835429283542
0.010031051298560585,0.2779743840789459,,0.010031051298560585,0.09739588817152511
0.010093551298560585,0.249398023630567,,0.010093551298560585,0.2896872612736973
0.010156051298560585,0.21123695310856486,,0.010156051298560585,0.4708461153836123
0.010218551298560585,0.1649577113867543,,0.010218551298560585,0.6339106173328727
0.010281051298560585,0.11233881257088796,,0.010281051298560585,0.7726142897592083
0.010343551298560585,0.05540239818416783,,0.010343551298560585,0.8816268283171779
0.010406051298560585,-0.0036634718655103376,,0.010406051298560585,0.9567589422849399
0.010468551298560586,-0.06258890572858095,,0.010468551298560586,0.9951233466572882
0.010531051298560586,-0.11910940956516233,,0.010531051298560586,0.9952457188891994
0.010593551298560586,-0.17105291131270972,,0.010593551298560586,0.9571213562844284
0.010656051298560586,-0.2164232314888533,,0.010656051298560586,0.8822153567174874
0.010718551298560586,-0.2534767957988877,,0.010718551298560586,0.7734063157439656
0.010781051298560586,-0.2807896390194551,,0.010781051298560586,0.6348757037876622
0.010843551298560586,-0.29731212774187904,,0.010843551298560586,0.4719471745771956
0.010906051298560586,-0.3024092965053924,,0.010906051298560586,0.2908819801187522
0.010968551298560586,-0.2958852497299248,,0.010968551298560586,0.098638354292832
0.011031051298560586,-0.27799068919098685,,0.011031051298560586,-0.09739588817152853
0.011093551298560586,-0.24941328026417223,,0.011093551298560586,-0.2896872612737006
0.011156051298560586,-0.21125122465476845,,0.011156051298560586,-0.4708461153836122
0.011218551298560586,-0.1649710577013285,,0.011218551298560586,-0.6339106173328753
0.011281051298560586,-0.11235128957537002,,0.011281051298560586,-0.772614289759206
0.011343551298560586,-0.055414058717468725,,0.011343551298560586,-0.8816268283171761
0.011406051298560586,0.0036525784733858592,,0.011406051298560586,-0.9567589422849387
0.011468551298560586,0.0625787328308297,,0.011468551298560586,-0.9951233466572879
0.011531051298560586,0.1190999136485435,,0.011531051298560586,-0.9952457188891998
0.011593551298560587,0.1710440511947147,,0.011593551298560587,-0.9571213562844294
0.011656051298560587,0.2164149687893026,,0.011656051298560587,-0.8822153567174859
0.011718551298560587,0.2534690941573012,,0.011718551298560587,-0.7734063157439635
0.011781051298560587,0.28078246458537326,,0.011781051298560587,-0.634875703787654
0.011843551298560587,0.29730544841007567,,0.011843551298560587,-0.47194717457718627
0.011906051298560587,0.3024030824227041,,0.011906051298560587,-0.2908819801187421
0.011968551298560587,0.2958794725462236,,0.011968551298560587,-0.09863835429282859
0.012031051298560587,0.27798532258056224,,0.012031051298560587,0.09739588817153194
0.012093551298560587,0.24940829919062574,,0.012093551298560587,0.28968726127370387
0.012156051298560587,0.21124660590522282,,0.012156051298560587,0.4708461153836152
0.012218551298560587,0.16496677916362512,,0.012218551298560587,0.6339106173328779
0.012281051298560587,0.1123473307835814,,0.012281051298560587,0.7726142897592082
0.012343551298560587,0.05541040013996607,,0.012343551298560587,0.8816268283171778
0.012406051298560587,-0.0036559548784592406,,0.012406051298560587,0.9567589422849397
0.012468551298560587,-0.06258184431788255,,0.012468551298560587,0.9951233466572889
0.012531051298560587,-0.11910277612028933,,0.012531051298560587,0.9952457188891988
0.012593551298560587,-0.17104667989600156,,0.012593551298560587,0.9571213562844264
0.012656051298560587,-0.21641737773513806,,0.012656051298560587,0.8822153567174842
0.012718551298560588,-0.2534712968191715,,0.012718551298560588,0.7734063157439612
0.012781051298560588,-0.28078447331246403,,0.012781051298560588,0.6348757037876569
0.012843551298560588,-0.2973072751089476,,0.012843551298560588,0.47194717457718954
0.012906051298560588,-0.30240473797252415,,0.012906051298560588,0.29088198011874566
0.012968551298560588,-0.295880967472563,,0.012968551298560588,0.09863835429283226
0.013031051298560588,-0.2779866664653581,,0.013031051298560588,-0.09739588817152829
0.013093551298560588,-0.24940950134077663,,0.013093551298560588,-0.28968726127370714
0.013156051298560588,-0.21124767475791556,,0.013156051298560588,-0.47084611538361826
0.013218551298560588,-0.16496772295032447,,0.013218551298560588,-0.6339106173328806
0.013281051298560588,-0.1123481569312812,,0.013281051298560588,-0.7726142897592103
0.013343551298560588,-0.05541111593109892,,0.013343551298560588,-0.8816268283171793
0.013406051298560588,0.0036553429083514,,0.013406051298560588,-0.9567589422849407
0.013468551298560588,0.06258132972385425,,0.013468551298560588,-0.9951233466572885
0.013531051298560588,0.11910235315346603,,0.013531051298560588,-0.9952457188891991
0.013593551298560588,0.17104634285049108,,0.013593551298560588,-0.9571213562844274
0.013656051298560588,0.21641712155626522,,0.013656051298560588,-0.882215356717486
0.013718551298560588,0.2534711164532334,,0.013718551298560588,-0.7734063157439636
0.013781051298560588,0.28078436431738474,,0.013781051298560588,-0.6348757037876542
0.013843551298560589,0.29730723300655904,,0.013843551298560589,-0.4719471745771865
0.013906051298560589,0.30240475886134155,,0.013906051298560589,-0.29088198011873556
0.013968551298560589,0.295881047382309,,0.013968551298560589,-0.09863835429282176
0.014031051298560589,0.2779868019715948,,0.014031051298560589,0.09739588817153877
0.014093551298560589,0.24940968892142468,,0.014093551298560589,0.2896872612737105
0.014156051298560589,0.21124791140950847,,0.014156051298560589,0.47084611538362126
